#-----------------------------------------------------------
# xsim v2026.1 (64-bit)
# SW Build 6511674 on Tue Jun 16 11:01:26 MDT 2026
# IP Build 6504888 on Tue Jun 09 09:05:25 MDT 2026
# SharedData Build 6501428 on Mon Jun 08 17:34:18 MDT 2026
# Start of session at: Wed Jul  1 01:24:13 2026
# Process ID         : 3132090
# Current directory  : /home/ft2335/dataset/ZipCPU/tbs
# Command line       : xsim -mode tcl -source {xsim.dir/sim_axilxbar/xsim_script.tcl}
# Log file           : /home/ft2335/dataset/ZipCPU/tbs/xsim.log
# Journal file       : /home/ft2335/dataset/ZipCPU/tbs/xsim.jou
# Running On         : ecs05.poly.edu
# Platform           : rhel
# Operating System   : Red Hat Enterprise Linux 9.8 (Plow)
# Processor Detail   : Intel(R) Xeon(R) Gold 6338N CPU @ 2.20GHz
# CPU Frequency      : 800.209 MHz
# CPU Physical cores : 64
# CPU Logical cores  : 128
# Host memory        : 1064154 MB
# Swap memory        : 274877 MB
# Total Virtual      : 1339032 MB
# Available Virtual  : 1276796 MB
#-----------------------------------------------------------
source xsim.dir/sim_axilxbar/xsim_script.tcl
# xsim {sim_axilxbar} -autoloadwcfg -runall
Time resolution is 1 ps
run -all
=================================================
 AXILXBAR TESTBENCH
=================================================

--- 1. Write: master 0 → slave 0 ---

WRITE  master=0  addr=0x10  data=0xdeadbeef  → slave=0
DEBUG AW: slave=0 m_awvalid=01
DEBUG ADDR: m_awaddr0=10 m_awaddr1=00
DEBUG W: m_wvalid=00
DEBUG DATA: m_wdata0=00000000 m_wdata1=00000000
  PASS [1]: WVALID asserted on correct slave (no timeout)
  PASS [2]: AW: routed address matches
  PASS [3]: AW: s_awready returned to master (no timeout)
  PASS [4]: WVALID asserted on correct slave (no timeout)
  PASS [5]: W:  routed data matches
  PASS [6]: W:  routed strobe matches
  PASS [7]: W:  s_wready returned to master (no timeout)
  PASS [8]: B:  M_BREADY asserted to slave (no timeout)
  PASS [9]: B:  S_BVALID forwarded to master (no timeout)
  PASS [10]: B:  response code matches

--- 2. Write: master 0 → slave 1 ---

WRITE  master=0  addr=0xa0  data=0xcafebabe  → slave=1
DEBUG AW: slave=1 m_awvalid=10
DEBUG ADDR: m_awaddr0=00 m_awaddr1=a0
DEBUG W: m_wvalid=00
DEBUG DATA: m_wdata0=00000000 m_wdata1=00000000
  PASS [11]: WVALID asserted on correct slave (no timeout)
  PASS [12]: AW: routed address matches
  PASS [13]: AW: s_awready returned to master (no timeout)
  PASS [14]: WVALID asserted on correct slave (no timeout)
  PASS [15]: W:  routed data matches
  PASS [16]: W:  routed strobe matches
  PASS [17]: W:  s_wready returned to master (no timeout)
  PASS [18]: B:  M_BREADY asserted to slave (no timeout)
  PASS [19]: B:  S_BVALID forwarded to master (no timeout)
  PASS [20]: B:  response code matches

--- 3. Read:  master 1 → slave 0 ---

READ   master=1  addr=0x20  → slave=0  expect=0x12345678
  PASS [21]: RVALID asserted on correct slave (no timeout)
  PASS [22]: AR: routed address matches
  PASS [23]: AR: s_arready returned to master (no timeout)
  PASS [24]: R:  M_RREADY asserted to slave (no timeout)
  PASS [25]: R:  S_RVALID forwarded to master (no timeout)
  PASS [26]: R:  read data matches
  PASS [27]: R:  response code matches

--- 4. Read:  master 1 → slave 1 ---

--- 5. Write: SLVERR response ---

--- 6. Read:  DECERR response ---

--- 7. Crossbar routing: concurrent masters to different slaves ---

--- 8. Arbitration: both masters → slave 0 ---

--- 9. Arbitration: both masters → slave 1 ---

--- 10. Write then read: master 0 → slave 0 ---

=================================================
 ALL 27 TESTS PASSED
=================================================

$finish called at time : 865 ns : File "/home/ft2335/dataset/ZipCPU/tbs/axilxbar_tb_assert.v" Line 654
exit
INFO: xsimkernel Simulation Memory Usage: 158464 KB (Peak: 224000 KB), Simulation CPU Usage: 1540 ms
INFO: [Common 17-206] Exiting xsim at Wed Jul  1 01:24:17 2026...
