#-----------------------------------------------------------
# xsim v2026.1 (64-bit)
# SW Build 6511674 on Tue Jun 16 11:01:26 MDT 2026
# IP Build 6504888 on Tue Jun 09 09:05:25 MDT 2026
# SharedData Build 6501428 on Mon Jun 08 17:34:18 MDT 2026
# Start of session at: Wed Jul  1 01:38:55 2026
# Process ID         : 3248453
# Current directory  : /home/ft2335/dataset/ZipCPU/tbs
# Command line       : xsim -mode tcl -source {xsim.dir/sim_axilxbar/xsim_script.tcl}
# Log file           : /home/ft2335/dataset/ZipCPU/tbs/xsim.log
# Journal file       : /home/ft2335/dataset/ZipCPU/tbs/xsim.jou
# Running On         : ecs05.poly.edu
# Platform           : rhel
# Operating System   : Red Hat Enterprise Linux 9.8 (Plow)
# Processor Detail   : Intel(R) Xeon(R) Gold 6338N CPU @ 2.20GHz
# CPU Frequency      : 800.217 MHz
# CPU Physical cores : 64
# CPU Logical cores  : 128
# Host memory        : 1064154 MB
# Swap memory        : 274877 MB
# Total Virtual      : 1339032 MB
# Available Virtual  : 1276909 MB
#-----------------------------------------------------------
source xsim.dir/sim_axilxbar/xsim_script.tcl
# xsim {sim_axilxbar} -autoloadwcfg -runall
Time resolution is 1 ps
run -all
=================================================
 AXILXBAR TESTBENCH
=================================================

--- 1. Write: master 0 → slave 0 ---

WRITE  master=0  addr=0x10  data=0xdeadbeef  → slave=0
DEBUG AW: slave=0 m_awvalid=01
DEBUG ADDR: m_awaddr0=10 m_awaddr1=00
DEBUG W: m_wvalid=00
DEBUG DATA: m_wdata0=00000000 m_wdata1=00000000
  PASS [1]: WVALID asserted on correct slave (no timeout)
  PASS [2]: AW: routed address matches
  PASS [3]: AW: s_awready returned to master (no timeout)
  PASS [4]: WVALID asserted on correct slave (no timeout)
  PASS [5]: W:  routed data matches
  PASS [6]: W:  routed strobe matches
  PASS [7]: W:  s_wready returned to master (no timeout)
  PASS [8]: B:  M_BREADY asserted to slave (no timeout)
  PASS [9]: B:  S_BVALID forwarded to master (no timeout)
  PASS [10]: B:  response code matches

--- 2. Write: master 0 → slave 1 ---

WRITE  master=0  addr=0xa0  data=0xcafebabe  → slave=1
DEBUG AW: slave=1 m_awvalid=10
DEBUG ADDR: m_awaddr0=00 m_awaddr1=a0
DEBUG W: m_wvalid=00
DEBUG DATA: m_wdata0=00000000 m_wdata1=00000000
  PASS [11]: WVALID asserted on correct slave (no timeout)
  PASS [12]: AW: routed address matches
  PASS [13]: AW: s_awready returned to master (no timeout)
  PASS [14]: WVALID asserted on correct slave (no timeout)
  PASS [15]: W:  routed data matches
  PASS [16]: W:  routed strobe matches
  PASS [17]: W:  s_wready returned to master (no timeout)
  PASS [18]: B:  M_BREADY asserted to slave (no timeout)
  PASS [19]: B:  S_BVALID forwarded to master (no timeout)
  PASS [20]: B:  response code matches

--- 3. Read:  master 1 → slave 0 ---

READ   master=1  addr=0x20  → slave=0  expect=0x12345678
  PASS [21]: RVALID asserted on correct slave (no timeout)
  PASS [22]: AR: routed address matches
  PASS [23]: AR: s_arready returned to master (no timeout)
  PASS [24]: R:  M_RREADY asserted to slave (no timeout)
  PASS [25]: R:  S_RVALID forwarded to master (no timeout)
  PASS [26]: R:  read data matches
  PASS [27]: R:  response code matches

--- 4. Read:  master 1 → slave 1 ---

READ   master=1  addr=0xc4  → slave=1  expect=0x9abcdef0
  PASS [28]: RVALID asserted on correct slave (no timeout)
  PASS [29]: AR: routed address matches
  PASS [30]: AR: s_arready returned to master (no timeout)
  PASS [31]: R:  M_RREADY asserted to slave (no timeout)
  PASS [32]: R:  S_RVALID forwarded to master (no timeout)
  PASS [33]: R:  read data matches
  PASS [34]: R:  response code matches

--- 5. Write: SLVERR response ---

WRITE  master=0  addr=0x30  data=0x00000001  → slave=0
DEBUG AW: slave=0 m_awvalid=01
DEBUG ADDR: m_awaddr0=30 m_awaddr1=00
DEBUG W: m_wvalid=00
DEBUG DATA: m_wdata0=00000000 m_wdata1=00000000
  PASS [35]: WVALID asserted on correct slave (no timeout)
  PASS [36]: AW: routed address matches
  PASS [37]: AW: s_awready returned to master (no timeout)
  PASS [38]: WVALID asserted on correct slave (no timeout)
  PASS [39]: W:  routed data matches
  PASS [40]: W:  routed strobe matches
  PASS [41]: W:  s_wready returned to master (no timeout)
  PASS [42]: B:  M_BREADY asserted to slave (no timeout)
  PASS [43]: B:  S_BVALID forwarded to master (no timeout)
  PASS [44]: B:  response code matches

--- 6. Read:  DECERR response ---

READ   master=1  addr=0xb0  → slave=1  expect=0x00000000
  PASS [45]: RVALID asserted on correct slave (no timeout)
  PASS [46]: AR: routed address matches
  PASS [47]: AR: s_arready returned to master (no timeout)
  PASS [48]: R:  M_RREADY asserted to slave (no timeout)
  PASS [49]: R:  S_RVALID forwarded to master (no timeout)
  PASS [50]: R:  read data matches
  PASS [51]: R:  response code matches

--- 7. Crossbar routing: concurrent masters to different slaves ---

CONCURRENT WRITE  m0→slave0  m1→slave1
  PASS [52]: CURRENT AW: both grants appeared (no timeout)
  PASS [53]: ENT AW: master 0 address correct
  PASS [54]: ENT AW: master 1 address correct
  PASS [55]: ONCURRENT W:  both data appeared (no timeout)
  PASS [56]: URRENT W:  master 0 data correct
  PASS [57]: URRENT W:  master 1 data correct
  PASS [58]:   both masters received response (no timeout)

--- 8. Arbitration: both masters → slave 0 ---

ARBITRATION  both masters → slave0  (master 0 should win)
  PASS [59]: ARB AW: first grant appeared (no timeout)
  PASS [60]: ARB AW: address correct
  PASS [61]:  W:  master 0 won (data correct) (no timeout)
  PASS [62]: ARB W:  master 0 data forwarded
  PASS [63]: B B:  master 0 received response (no timeout)
  PASS [64]:  master 1 granted after master 0 (no timeout)
  PASS [65]: ARB W:  master 1 data forwarded (no timeout)
  FAIL [66]: ARB W:  master 1 data correct
  PROTOCOL FAIL: master 1 dropped S_AWVALID before AWREADY
  PROTOCOL FAIL: master 1 dropped S_WVALID before WREADY
  FAIL [67]: TIMEOUT waiting for B B:  master 1 received response

--- 9. Arbitration: both masters → slave 1 ---

ARBITRATION  both masters → slave1  (master 0 should win)
  PASS [68]: ARB AW: first grant appeared (no timeout)
  PASS [69]: ARB AW: address correct
  PASS [70]:  W:  master 0 won (data correct) (no timeout)
  PASS [71]: ARB W:  master 0 data forwarded
  PASS [72]: B B:  master 0 received response (no timeout)
  PASS [73]:  master 1 granted after master 0 (no timeout)
  PASS [74]: ARB W:  master 1 data forwarded (no timeout)
  FAIL [75]: ARB W:  master 1 data correct
  PROTOCOL FAIL: master 1 dropped S_AWVALID before AWREADY
  PROTOCOL FAIL: master 1 dropped S_WVALID before WREADY
  FAIL [76]: TIMEOUT waiting for B B:  master 1 received response

--- 10. Write then read: master 0 → slave 0 ---

WRITE  master=0  addr=0x44  data=0x5a5a5a5a  → slave=0
DEBUG AW: slave=0 m_awvalid=01
DEBUG ADDR: m_awaddr0=44 m_awaddr1=00
DEBUG W: m_wvalid=00
DEBUG DATA: m_wdata0=00000000 m_wdata1=00000000
  PASS [77]: WVALID asserted on correct slave (no timeout)
  PASS [78]: AW: routed address matches
  PASS [79]: AW: s_awready returned to master (no timeout)
  PASS [80]: WVALID asserted on correct slave (no timeout)
  PASS [81]: W:  routed data matches
  PASS [82]: W:  routed strobe matches
  PASS [83]: W:  s_wready returned to master (no timeout)
  PASS [84]: B:  M_BREADY asserted to slave (no timeout)
  PASS [85]: B:  S_BVALID forwarded to master (no timeout)
  PASS [86]: B:  response code matches

READ   master=0  addr=0x44  → slave=0  expect=0x5a5a5a5a
  PASS [87]: RVALID asserted on correct slave (no timeout)
  PASS [88]: AR: routed address matches
  PASS [89]: AR: s_arready returned to master (no timeout)
  PASS [90]: R:  M_RREADY asserted to slave (no timeout)
  PASS [91]: R:  S_RVALID forwarded to master (no timeout)
  PASS [92]: R:  read data matches
  PASS [93]: R:  response code matches

=================================================
 8 / 93 CHECKS FAILED
=================================================

$finish called at time : 14755 ns : File "/home/ft2335/dataset/ZipCPU/tbs/axilxbar_tb_assert.v" Line 662
exit
INFO: xsimkernel Simulation Memory Usage: 158492 KB (Peak: 224028 KB), Simulation CPU Usage: 1520 ms
INFO: [Common 17-206] Exiting xsim at Wed Jul  1 01:38:59 2026...
